! ListType=Lin
!!filtre 10 MHz 4eme ordre
# MHZ S DB R 50
  9.9800000   0.0547495  -3.5190422 -77.7043658 117.7502772 -80.2229012 -42.0391154   0.0213321  -3.6665126
  9.9800171   0.0684812  -3.6357399 -77.6507230 -49.8103292 -78.5854224 139.6466708   0.0447680  -3.7986027
  9.9800342   0.0473385  -3.6032930 -76.0373691 114.7662926 -80.9361140 -56.8848764   0.0464129  -3.7806251
  9.9800513   0.0427070  -3.6569646 -80.4343867  -4.0044994 -79.0870102   7.5651717   0.0317045  -3.6561268
  9.9800684   0.0429273  -3.7842066 -75.5455282 -166.6353847 -79.2019837 159.0154878   0.0390086  -3.7623597
  9.9800855   0.0389693  -3.6158995 -83.5173360  42.0741833 -79.4544140 -173.5248527   0.0375881  -3.7349145
  9.9801026   0.0538191  -3.6848712 -88.6328228 152.3635641 -87.2809096 105.7259221   0.0189551  -3.7849510
  9.9801197   0.0384518  -3.8945275 -82.3975621 -173.6736233 -88.5985304  36.9377544   0.0140159  -3.9301752
  9.9801368   0.0364482  -3.6518308 -83.1794589 -159.2868639 -84.7762535  51.8444764   0.0571128  -3.7512292
  9.9801539   0.0631125  -3.6590586 -84.0340496 -175.6156935 -86.6320251 -173.9087717   0.0586094  -3.6042545
  9.9801710   0.0430851  -3.6391319 -80.0853318 115.1429584 -85.8229990 -76.2652058   0.0342603  -3.7079030
  9.9801881   0.0269144  -3.7242625 -76.2408289 115.7426440 -81.1458489  28.2161433   0.0305444  -3.6753236
  9.9802052   0.0457386  -3.7387750 -89.8881380 -115.7663527 -80.3322504  45.8810019   0.0295151  -3.8784585
  9.9802223   0.0640083  -3.7479779 -94.8674759 133.1917609 -76.2674101 -148.6590136   0.0565513  -3.9029874
  9.9802394   0.0633984  -3.6941546 -86.6202918 107.1914922 -80.6695090 -33.4511942   0.0370188  -3.7330239
  9.9802565   0.0737626  -3.6667276 -81.7180097 137.0480105 -85.1611727 -149.1917315   0.0232922  -3.7876058
  9.9802736   0.0688916  -3.7304963 -93.2745333 -70.3366106 -104.4628218 166.5530509   0.0578410  -3.8857022
  9.9802907   0.0604847  -3.4570054 -83.5775910  13.4726223 -76.0275394 -142.7432452   0.0563574  -3.5920253
  9.9803078   0.0422319  -3.7704223 -86.3750443 -28.1256457 -87.3581315 -25.2230412   0.0284184  -3.8771873
  9.9803249   0.0417470  -3.7413918 -88.3301586 112.3653876 -82.8513508 -144.5945652   0.0448326  -3.8554437
  9.9803420   0.0742061  -3.7101995 -83.7686157 -81.1971526 -79.2105063 133.4955780   0.0646526  -3.7683959
  9.9803591   0.0623400  -3.8094866 -77.8697193 124.3820677 -86.6314380 -66.9226599   0.0535038  -3.7820181
  9.9803762   0.0715635  -3.6539852 -77.9599413 174.8378459 -88.2472969 128.1730552   0.0609939  -3.6880418
  9.9803933   0.0641181  -3.6571537 -84.5980342  -5.4271750 -79.8033827  83.5610780   0.0458894  -3.6974286
  9.9804104   0.0668530  -3.8051579 -82.8959065 -79.6802026 -83.6713121  68.5003482   0.0350631  -3.9694890
  9.9804275   0.0668531  -3.7601657 -85.2059424 141.6772441 -98.8168616  26.7254004   0.0581460  -3.9164465
  9.9804446   0.0610797  -3.6356830 -88.2515256 163.5634022 -87.0441339 127.9327568   0.0426886  -3.7802402
  9.9804617   0.0260440  -3.6207480 -87.6664349 150.4286494 -85.9476793  -7.3304456   0.0183423  -3.7997408
  9.9804787   0.0474432  -3.6843115 -84.0718542 137.5799820 -82.0817647 -20.3499128   0.0324575  -3.7713498
  9.9804958   0.0750148  -3.6359870 -72.9922784  99.1878599 -75.2871313 -82.3708628   0.0479001  -3.8747866
  9.9805129   0.0366014  -3.6483886 -77.0211112  62.4172403 -75.3230732 -62.1347497   0.0465401  -3.7235694
  9.9805300   0.0818866  -3.7779124 -85.7566144 -78.9842831 -77.1880220 164.7893250   0.0616127  -3.8610880
  9.9805471   0.0830945  -3.6877367 -83.4242442  77.2393337 -84.3467975 -44.6024902   0.0702350  -3.7280169
  9.9805642   0.0655413  -3.8180546 -77.4083799 149.4709366 -89.3481872 153.6049122   0.0383049  -4.0155865
  9.9805813   0.0524519  -3.7884751 -84.3520951 -119.6505413 -93.2434422 115.9709577   0.0410796  -3.7794447
  9.9805984   0.0601114  -3.6820160 -102.6199016 -92.4145403 -81.6041632 -162.4608367   0.0293363  -3.7105550
  9.9806155   0.0666002  -3.5810944 -80.0763769 147.1384970 -82.9257743  50.9676490   0.0546124  -3.7591466
  9.9806326   0.0634192  -3.8015075 -87.8253113 -123.4920934 -88.1749328 -127.4697258   0.0655480  -3.7831787
  9.9806497   0.0757660  -3.8754126 -83.6459392 -114.2007238 -97.4978237 -103.7662645   0.0364445  -3.7970547
  9.9806668   0.0767120  -3.7169594 -82.5755915 119.6590867 -95.1268673 -119.0333445   0.0612424  -3.8839949
  9.9806839   0.0445944  -3.7436550 -78.6818650 159.4426965 -87.2096819   9.4309775   0.0256710  -3.8167537
  9.9807010   0.0666383  -3.7132978 -77.5364297 166.2181138 -82.5170429  -9.0603628   0.0463360  -3.8346037
  9.9807181   0.0571667  -3.7402456 -91.0389529  24.9003734 -94.7251181 -92.8014803   0.0336049  -3.8301736
  9.9807352   0.0676104  -3.5876010 -83.1916954 -155.7812571 -78.3772191 -39.1345807   0.0470408  -3.7413400
  9.9807523   0.0579222  -3.7642156 -80.6907524 118.0719194 -79.2690131 140.0010313   0.0462911  -3.7797264
  9.9807694   0.0501987  -3.7415217 -85.9987471 -124.7338792 -80.8134675 -85.4079830   0.0357282  -3.8950537
  9.9807865   0.0570363  -3.5580057 -96.0016163 -83.7974421 -77.8458451 133.7644642   0.0439555  -3.6950031
  9.9808036   0.0609797  -3.6719224 -89.7753482 -72.1284320 -80.5940644 -158.5415431   0.0378474  -3.6850945
  9.9808207   0.0569602  -3.5916760 -81.9030006  53.8287062 -83.6713529  -5.9218417   0.0495341  -3.6704158
  9.9808378   0.0553071  -3.8298984 -80.4824472  27.9950522 -78.4785868 160.0092665   0.0449662  -3.8639983
  9.9808549   0.0778902  -3.6723198 -89.0370372 124.2599354 -83.9595558 163.5405783   0.0629417  -3.9101252
  9.9808720   0.0756603  -3.6284288 -93.8214184 -77.2021454 -86.0671912  55.8043616   0.0568139  -3.7866541
  9.9808891   0.0505273  -3.6966956 -78.3020631 -178.9626588 -83.1503788 -155.7828617   0.0269486  -3.8821391
  9.9809062   0.0426390  -3.6615454 -91.2291113 -15.4441605 -77.4828094  63.0342536   0.0275993  -3.7714002
  9.9809233   0.0626847  -3.6612907 -87.7884081 -87.8205601 -88.6018604 -159.2342642   0.0364704  -3.6828621
  9.9809404   0.0374865  -3.6878172 -83.7188311 104.6784907 -85.6647332  16.0765929   0.0338216  -3.6876424
  9.9809575   0.0629092  -3.6070775 -74.3742274 -171.4345985 -81.1957454 -18.9156018   0.0291321  -3.7984430
  9.9809746   0.0560188  -3.6250644 -87.0011270 -150.0036753 -84.4869971 -150.1838816   0.0352519  -3.6898686
  9.9809917   0.0771335  -3.6523371 -84.9774287 179.2159953 -87.0361813  63.5464897   0.0336538  -3.8392298
  9.9810088   0.0604737  -3.7090203 -88.9484097  67.1215955 -80.5246924 -84.2739520   0.0459301  -3.7723793
  9.9810259   0.0526991  -3.7653445 -82.0901954 -119.6148383 -81.6720830  56.5359226   0.0501650  -3.8802707
  9.9810430   0.0640741  -3.6876142 -82.7599496 -159.5505068 -89.3773837  44.7011612   0.0488340  -3.8083546
  9.9810601   0.0489571  -3.7053021 -80.5054421  23.2715844 -81.9187919 -178.9171905   0.0275024  -3.9751133
  9.9810772   0.0664957  -3.6644423 -85.8289461 124.2130203 -90.6160838  54.9922988   0.0398614  -3.7579749
  9.9810943   0.0650410  -3.6393109 -100.7512596  82.8130599 -78.8215003 101.2598077   0.0526879  -3.8761522
  9.9811114   0.0770431  -3.5343676 -83.7077436 -95.6695775 -87.6967084 -164.3559714   0.0503113  -3.7692704
  9.9811285   0.0916706  -3.6790963 -78.3641968 104.9391611 -83.6723091 -144.6166037   0.0677733  -3.8157134
  9.9811456   0.0699643  -3.6720494 -93.0388490 -39.4505435 -80.0623598 140.7652842   0.0589835  -3.8714732
  9.9811627   0.0441696  -3.5614699 -76.6210742 -153.7122006 -90.1413408  43.7904069   0.0242018  -3.6428420
  9.9811798   0.0536216  -3.6683981 -80.9831376  51.9770374 -84.9291166 -124.2535891   0.0504139  -3.9452098
  9.9811969   0.0638631  -3.6250020 -85.5279085 122.2514710 -84.7521054 111.4880119   0.0285045  -3.7641533
  9.9812140   0.0540775  -3.8247504 -80.8431676 159.0977426 -91.5077629  24.8689724   0.0485896  -3.8241082
  9.9812311   0.0540614  -3.5215527 -83.6662667 -60.4533206 -85.9815511 -126.6015568   0.0443049  -3.7364493
  9.9812482   0.0466437  -3.6960541 -82.6282980  64.2764427 -85.2510016 165.2297659   0.0304337  -3.9254070
  9.9812653   0.0691605  -3.6245010 -82.9615579 139.7098444 -78.0065304 -83.8680691   0.0353791  -3.7424724
  9.9812824   0.0521785  -3.6152619 -86.8891611  81.2890810 -101.1069630 161.8178469   0.0386188  -3.7115970
  9.9812995   0.0727905  -3.6040780 -84.2520358 -15.9664244 -88.3741404  21.3537501   0.0383354  -3.7505405
  9.9813166   0.0656961  -3.6017586 -86.4187822  15.7638792 -89.8473978 -146.8491413   0.0318290  -3.7957538
  9.9813337   0.0618392  -3.7439202 -83.8225413 171.2245224 -95.4946104 -161.2306580   0.0381426  -3.8514722
  9.9813508   0.0714445  -3.6338490 -80.5287766  92.7537701 -87.2118672 -148.6961503   0.0541997  -3.6567328
  9.9813679   0.0363758  -3.7242823 -81.2619533 -47.0137999 -79.4677657 157.7791029   0.0323889  -3.8949610
  9.9813850   0.0398734  -3.6020579 -77.4731370 172.7903208 -87.5310355 -165.6502794   0.0369450  -3.7504131
  9.9814021   0.0482207  -3.8544992 -91.1642174 -84.7239784 -80.5761939 109.6436611   0.0515087  -3.9759359
  9.9814191   0.0262696  -3.7424786 -80.4435975 -143.9403926 -86.1685994 129.2779255   0.0184244  -3.6852987
  9.9814362   0.0504964  -3.5505748 -92.1970963 -81.3293448 -82.0974884 -142.3002528   0.0448252  -3.6433237
  9.9814533   0.0414679  -3.8948760 -85.4597720 -136.5586329 -84.3829719 134.4437882   0.0375685  -3.7642627
  9.9814704   0.0473249  -3.6500852 -78.8796058 -167.5507013 -85.5712118   0.3871787   0.0597753  -3.8634773
  9.9814875   0.0527847  -3.7475824 -84.9053743 -147.3421627 -78.8683278 149.5441774   0.0487066  -3.8641623
  9.9815046   0.0531035  -3.6132621 -83.8749313  91.5645955 -100.9911777   7.7708419   0.0647853  -3.7692604
  9.9815217   0.0580200  -3.5241270 -88.4402268  55.0035836 -92.5031623 -130.7973854   0.0541922  -3.6602367
  9.9815388   0.0341484  -3.5644155 -95.0469446 -43.3596877 -79.4680688 -81.8444608   0.0708465  -3.8092285
  9.9815559   0.0407962  -3.6641193 -84.3357510 -37.0942906 -76.3359980 -171.7019708   0.0322982  -3.7206818
  9.9815730   0.0567522  -3.6731666 -79.5177437  60.1305764 -85.5266877  19.2749294   0.0721865  -3.6622286
  9.9815901   0.0390669  -3.6674821 -84.1543126 -153.5053734 -82.6438364 -128.1516161   0.0628232  -3.8638438
  9.9816072   0.0400484  -3.8468163 -94.9368608 -55.0918094 -74.4727623 107.0710901   0.0655993  -3.8398076
  9.9816243   0.0452832  -3.7889333 -77.1611239 -15.0409012 -82.0554382 -45.4239201   0.0625484  -3.6967355
  9.9816414   0.0142497  -3.7751598 -82.2941341  81.6669096 -81.4081118 167.3270360   0.0307140  -3.9358976
  9.9816585   0.0116201  -3.7762761 -82.3166245 -111.3574565 -83.3716988  32.6758410   0.0359251  -3.7917728
  9.9816756   0.0363928  -3.7505373 -77.9429730 -143.9296116 -78.7643175  99.8097020   0.0578258  -3.8526737
  9.9816927   0.0187177  -3.7539702 -82.4798715  83.6707923 -88.3489614 -178.7826528   0.0460513  -3.8218781
  9.9817098   0.0277767  -3.8362834 -83.7539064 -123.4509425 -87.2009873 146.6868049   0.0460453  -3.9388910
  9.9817269   0.0215922  -3.9285765 -96.5987826 162.3316370 -85.2774025  16.1067678   0.0533046  -3.8410284
  9.9817440   0.0299638  -3.7928968 -78.5243901 163.4977155 -77.2174874 151.8949880   0.0503693  -3.7706083
  9.9817611   0.0335391  -3.7530440 -80.3464005  79.4594010 -90.4409579 -53.2744970   0.0415505  -3.8385578
  9.9817782   0.0210665  -3.6888252 -78.3420159 -136.4816757 -86.5746519 -45.7162063   0.0488188  -3.7519102
  9.9817953   0.0185327  -3.6723697 -90.8743785 -57.3129687 -91.8973493 170.6712370   0.0454032  -3.6729944
  9.9818124   0.0385083  -3.7217898 -86.6072783  70.0971165 -89.4973914 139.8230701   0.0664719  -3.8628428
  9.9818295   0.0228796  -3.7985105 -80.7435755  -0.9470119 -91.5766316 160.0877815   0.0584902  -3.7734520
  9.9818466   0.0345269  -3.7672096 -80.2746781 131.3315866 -89.2373240 -49.5558711   0.0319655  -3.9366452
  9.9818637   0.0147335  -3.7981282 -88.4414986 106.6518472 -77.2937856  81.5147720   0.0314234  -3.7366544
  9.9818808   0.0310274  -3.7471647 -93.3814482 -14.5004584 -89.5268464 -76.3978495   0.0390294  -3.9254196
  9.9818979   0.0102368  -3.8921326 -77.4621642 115.3190039 -79.4941591 161.4922404   0.0343777  -3.9650129
  9.9819150   0.0351424  -4.0719823 -93.4506813 -93.4642326 -79.9204103  49.2000602   0.0558752  -3.9263602
  9.9819321   0.0206912  -3.7331432 -92.5595982 -71.5731645 -84.2083113 166.4596382   0.0335447  -3.7391827
  9.9819492   0.0401180  -3.8814886 -86.8538087 121.5425657 -77.6112654 113.9690278   0.0281914  -3.9109851
  9.9819663   0.0009976  -4.0067541 -79.6802915 146.8682542 -78.6499739 -63.0434555   0.0328202  -3.9836254
  9.9819834   0.0274122  -3.7870330 -82.6905794  70.0737346 -80.4053041 119.3226369   0.0350470  -3.8089044
  9.9820005   0.0114545  -3.8547506 -90.4096937  93.2788551 -81.7836787  61.5858406   0.0388959  -3.8836981
  9.9820176   0.0406412  -3.7810470 -79.7108219  38.4021586 -85.1809265 169.0426225   0.0550672  -3.8065822
  9.9820347   0.0355755  -3.9508202 -86.4096976 -126.6879158 -83.6091382 106.1640549   0.0451858  -4.0187001
  9.9820518   0.0489888  -3.9008016 -74.4426265 122.3423385 -82.8343837   6.3412695   0.0505392  -4.0566252
  9.9820689   0.0343102  -3.9515279 -81.0512686  48.4976253 -83.4503125 140.0346201   0.0392003  -3.9459585
  9.9820860   0.0483835  -3.6231650 -91.6380747 150.9927749 -92.8052874 -147.3399779   0.0307079  -3.6745707
  9.9821031   0.0303157  -3.8874854 -85.0538488  38.9551714 -78.8490659 -123.6438778   0.0343525  -3.9353766
  9.9821202   0.0274213  -3.8151570 -80.6890162 -132.1848990 -76.4885187 103.5106397   0.0511698  -3.8737705
  9.9821373   0.0411175  -3.8375399 -79.0167547  35.3340720 -84.3219696 -19.6943591   0.0451062  -3.8838784
  9.9821544   0.0357341  -3.8533483 -84.0651933 -22.2328474 -77.6200626 161.9530587   0.0466197  -3.8694625
  9.9821715   0.0244707  -3.7274333 -81.5336234 -160.7166945 -81.9850298  66.5917051   0.0495578  -3.8856096
  9.9821886   0.0031171  -3.7380260 -89.0379746  98.9270841 -77.8305963 143.7448973   0.0301869  -3.8179703
  9.9822057   0.0406758  -3.8800934 -81.3016949  74.5390644 -90.8334535 139.2946795   0.0446488  -4.0114743
  9.9822228   0.0265742  -3.9393122 -86.6941047 105.3917931 -89.7231027 -170.9774426   0.0436704  -3.8442420
  9.9822399   0.0078986  -3.9356318 -75.9431550 157.1311051 -82.1198345  27.6209242   0.0431320  -3.8975744
  9.9822570   0.0415303  -3.7751727 -85.0954376 -50.2426018 -87.6423257 -75.2982567   0.0540832  -3.8155153
  9.9822741   0.0192883  -3.7571724 -96.8331511 124.8599109 -93.7677359 139.2367428   0.0465501  -3.9304775
  9.9822912   0.0211768  -3.8068713 -76.0846700  92.8310113 -80.8875572 -93.7113201   0.0490542  -3.8549137
  9.9823083   0.0260732  -3.6887465 -80.6056902 -119.8026168 -83.1543358 -14.6289836   0.0346439  -3.8323817
  9.9823254   0.0503715  -3.8343687 -90.9277449 -128.7193427 -77.5322098 178.8167610   0.0341349  -3.8173849
  9.9823425   0.0067978  -3.8832340 -88.6454890  52.0378216 -81.1711892  80.1987179   0.0376451  -3.8852858
  9.9823596   0.0406247  -3.6839352 -82.0964088 -147.1050866 -80.0662211 170.3981735   0.0596696  -3.8911927
  9.9823766   0.0503106  -3.9430541 -82.9833819  60.0622339 -76.3847854  92.2772107   0.0313354  -3.9002775
  9.9823937   0.0462547  -3.7773865 -82.7943955 -80.6587073 -80.1994765 -134.8957170   0.0587815  -3.7971001
  9.9824108   0.0270670  -3.6977610 -79.3519433 114.2191368 -77.7670787 -171.2472292   0.0345028  -3.7259088
  9.9824279   0.0220588  -3.9012214 -85.3470354 143.1247721 -81.0680817  24.9360153   0.0586965  -3.9329809
  9.9824450   0.0241957  -3.7432166 -82.4775815 -141.5136842 -81.6581214 155.6288669   0.0549755  -3.7928775
  9.9824621   0.0289449  -3.8022321 -79.9881359  70.1641119 -84.8355104  21.1138445   0.0405478  -3.7582411
  9.9824792   0.0400632  -3.7652623 -86.4172941 123.2836484 -87.6097482 -161.4959216   0.0430505  -4.0187140
  9.9824963   0.0242781  -3.8218375 -84.0778181 -163.5513686 -76.0671610  36.9775539   0.0407418  -3.9562461
  9.9825134   0.0231938  -3.9329390 -87.7429846 -23.1013091 -73.7906257  31.9409190   0.0405918  -3.9912023
  9.9825305   0.0690104  -3.7378024 -78.2301885  46.0893475 -77.4351548 -167.9146223   0.0626657  -3.8598240
  9.9825476   0.0398201  -3.7306007 -80.2297486 145.6454402 -82.6532865  39.6906152   0.0620708  -3.9110985
  9.9825647   0.0294541  -3.6968732 -79.7140939 130.4367965 -83.0535295 127.9647724   0.0400719  -3.7288143
  9.9825818   0.0489368  -3.8509408 -75.2748522 -66.6590662 -83.0350778 -26.7892566   0.0423110  -3.7955743
  9.9825989   0.0350393  -4.0061005 -88.2776887  67.8806045 -82.6022886 -123.7878798   0.0303587  -3.9433575
  9.9826160   0.0360934  -3.9853016 -79.1323902  37.8679977 -81.8758475  17.9795073   0.0439724  -4.0887829
  9.9826331   0.0475940  -3.7523137 -77.1348817 -97.9187963 -77.5527672 -163.8283828   0.0427740  -3.9272609
  9.9826502   0.0165333  -3.8525034 -86.5215601  34.2591017 -82.9668666 153.8323059   0.0288630  -3.9870166
  9.9826673   0.0352989  -3.9913526 -85.2175024  59.0136702 -86.0630843 -51.3743166   0.0557535  -3.9469278
  9.9826844   0.0533753  -3.8313837 -80.2511379 168.1918872 -77.8498331  25.0040871   0.0432906  -3.8485291
  9.9827015   0.0452299  -3.7922562 -90.1954736   3.9226591 -77.8938096 -176.5187856   0.0606811  -3.9228483
  9.9827186   0.0324868  -3.8451405 -95.8306044 -33.7794427 -74.6716594  93.2914779   0.0484375  -3.8598964
  9.9827357   0.0183658  -3.7773929 -87.3399484 130.6343520 -77.1874402  -7.1809982   0.0403034  -3.8657138
  9.9827528   0.0080449  -3.8905098 -79.7271126 -179.9481489 -79.0793310 129.2961509   0.0062857  -3.8194046
  9.9827699   0.0436298  -4.0021536 -87.5283097  15.1599927 -85.0905862 -147.1888058   0.0365919  -3.9202770
  9.9827870   0.0355134  -3.7564214 -89.0888140 -143.1863775 -82.4043685 -156.7460273   0.0661926  -3.9866552
  9.9828041   0.0373249  -3.8529647 -81.1988555  89.1562470 -81.5253841  60.0353749   0.0513962  -3.8803924
  9.9828212   0.0257496  -3.9783385 -82.4242278 -152.5334013 -82.5992961 104.8343176   0.0365307  -3.9258874
  9.9828383   0.0327021  -3.8961825 -81.0386159  99.7503179 -80.5933972 -132.1431511   0.0371858  -3.9919343
  9.9828554   0.0519947  -3.9255618 -76.8245014  52.5864647 -79.4179389 -134.4761427   0.0490707  -3.9129759
  9.9828725   0.0516102  -4.0174030 -78.2057423 115.7247553 -79.3877315  80.0260022   0.0474351  -3.9521534
  9.9828896   0.0285353  -3.7703928 -81.4724326 135.5939354 -85.1989012 120.0075829   0.0172016  -3.8721014
  9.9829067   0.0594443  -4.0489666 -86.2992892  26.6098601 -79.4399869 -99.7328909   0.0515868  -3.9601783
  9.9829238   0.0409412  -3.7833530 -89.5602746   1.8580798 -81.4979426 146.0526633   0.0546876  -3.9691734
  9.9829409   0.0353444  -3.9961773 -81.1525979 101.2534471 -81.6883668  68.9023205   0.0434571  -3.8582829
  9.9829580   0.0383228  -3.8150751 -83.0793043 -134.9374977 -75.6356032 100.7651845   0.0256201  -3.9329909
  9.9829751   0.0460461  -3.8568350 -90.0736801  28.9946014 -81.9679700 -133.9734585   0.0652238  -3.9553971
  9.9829922   0.0398448  -3.8752042 -93.3428911 -18.6171742 -85.7512049  23.6797376   0.0268730  -3.9348973
  9.9830093   0.0379149  -3.9547570 -76.0449031 -159.0627292 -80.9315684  -1.0743622   0.0433907  -3.9708616
  9.9830264   0.0398169  -3.8143345 -84.8213804 -14.3115502 -79.6218967 105.9544537   0.0395676  -4.0700742
  9.9830435   0.0203382  -3.7773080 -82.2457457 177.1817716 -88.6546176 -119.2247699   0.0370715  -3.8154504
  9.9830606   0.0435582  -3.9250148 -82.9478355  84.0988623 -83.2048565 -162.6933761   0.0486246  -3.9433532
  9.9830777   0.0169150  -3.9229511 -82.7302525 161.1653798 -96.1415598 -103.6193063   0.0245639  -3.9170209
  9.9830948   0.0394508  -3.8738277 -87.3885017  57.9923217 -88.1774581  54.6880820   0.0422166  -3.9623273
  9.9831119   0.0514317  -3.8798001 -77.1024656 138.2682770 -86.6211615 -144.1566385   0.0745953  -3.9913691
